time	V(n001)	V(n002)	I(R1)
0.000000000000000e+000	-2.000000e+000	-4.999875e-005	-4.999875e-002
1.000000000000000e-004	-2.000000e+000	-4.999875e-005	-4.999875e-002
1.010000000000000e-004	2.000000e+000	3.999782e+000	-4.999454e-002
8.386857142857145e-004	2.000000e+000	3.763260e+000	-4.408149e-002
1.576371428571429e-003	2.000000e+000	3.538974e+000	-3.847436e-002
2.314057142857144e-003	2.000000e+000	3.326926e+000	-3.317314e-002
3.051742857142858e-003	2.000000e+000	3.127114e+000	-2.817785e-002
3.789428571428573e-003	2.000000e+000	2.939539e+000	-2.348847e-002
4.527114285714288e-003	2.000000e+000	2.764200e+000	-1.910501e-002
5.264800000000000e-003	2.000000e+000	2.601099e+000	-1.502747e-002
5.679085714285715e-003	2.000000e+000	2.513072e+000	-1.282679e-002
6.093371428571430e-003	2.000000e+000	2.427796e+000	-1.069489e-002
6.507657142857145e-003	2.000000e+000	2.345271e+000	-8.631772e-003
6.921942857142861e-003	2.000000e+000	2.265498e+000	-6.637437e-003
7.336228571428576e-003	2.000000e+000	2.188475e+000	-4.711884e-003
7.750514285714291e-003	2.000000e+000	2.114205e+000	-2.855114e-003
8.164800000000005e-003	2.000000e+000	2.042685e+000	-1.067126e-003
8.264800000000004e-003	2.000000e+000	2.025733e+000	-6.433325e-004
8.364800000000004e-003	2.000000e+000	2.008922e+000	-2.230558e-004
8.464800000000003e-003	2.000000e+000	1.992251e+000	1.937331e-004
8.564800000000003e-003	2.000000e+000	1.975718e+000	6.070630e-004
8.764800000000001e-003	2.000000e+000	1.943062e+000	1.423461e-003
9.064800000000000e-003	2.000000e+000	1.895087e+000	2.622825e-003
9.650514285714283e-003	2.000000e+000	1.805285e+000	4.867871e-003
1.023622857142856e-002	2.000000e+000	1.719300e+000	7.017505e-003
1.082194285714285e-002	2.000000e+000	1.637131e+000	9.071725e-003
1.140765714285713e-002	2.000000e+000	1.558779e+000	1.103053e-002
1.199337142857141e-002	2.000000e+000	1.484243e+000	1.289393e-002
1.257908571428569e-002	2.000000e+000	1.413524e+000	1.466191e-002
1.316479999999998e-002	2.000000e+000	1.346621e+000	1.633448e-002
1.423622857142854e-002	2.000000e+000	1.233436e+000	1.916410e-002
1.530765714285711e-002	2.000000e+000	1.128179e+000	2.179553e-002
1.637908571428567e-002	2.000000e+000	1.030849e+000	2.422878e-002
1.745051428571424e-002	2.000000e+000	9.414462e-001	2.646384e-002
1.852194285714280e-002	2.000000e+000	8.599712e-001	2.850072e-002
1.959337142857137e-002	2.000000e+000	7.864236e-001	3.033941e-002
2.066479999999993e-002	2.000000e+000	7.208035e-001	3.197991e-002
2.176479999999992e-002	2.000000e+000	6.587270e-001	3.353182e-002
2.286479999999992e-002	2.000000e+000	6.010881e-001	3.497280e-002
2.396479999999991e-002	2.000000e+000	5.478868e-001	3.630283e-002
2.506479999999991e-002	2.000000e+000	4.991231e-001	3.752192e-002
2.616479999999990e-002	2.000000e+000	4.547969e-001	3.863008e-002
2.726479999999990e-002	2.000000e+000	4.149084e-001	3.962729e-002
2.836479999999989e-002	2.000000e+000	3.794575e-001	4.051356e-002
2.946479999999990e-002	2.000000e+000	3.467802e-001	4.133050e-002
3.056479999999992e-002	2.000000e+000	3.164388e-001	4.208903e-002
3.166479999999994e-002	2.000000e+000	2.884334e-001	4.278916e-002
3.276479999999996e-002	2.000000e+000	2.627640e-001	4.343090e-002
3.386479999999997e-002	2.000000e+000	2.394306e-001	4.401423e-002
3.496479999999999e-002	2.000000e+000	2.184331e-001	4.453917e-002
3.606480000000001e-002	2.000000e+000	1.997716e-001	4.500571e-002
3.716480000000004e-002	2.000000e+000	1.825701e-001	4.543575e-002
3.826480000000007e-002	2.000000e+000	1.665983e-001	4.583504e-002
3.936480000000010e-002	2.000000e+000	1.518562e-001	4.620360e-002
4.046480000000013e-002	2.000000e+000	1.383437e-001	4.654141e-002
4.156480000000017e-002	2.000000e+000	1.260609e-001	4.684848e-002
4.266480000000020e-002	2.000000e+000	1.150077e-001	4.712481e-002
4.376480000000023e-002	2.000000e+000	1.051842e-001	4.737040e-002
4.487908571428598e-002	2.000000e+000	9.602071e-002	4.759948e-002
4.599337142857173e-002	2.000000e+000	8.751882e-002	4.781203e-002
4.710765714285747e-002	2.000000e+000	7.967855e-002	4.800804e-002
4.822194285714321e-002	2.000000e+000	7.249992e-002	4.818750e-002
4.933622857142896e-002	2.000000e+000	6.598291e-002	4.835043e-002
5.045051428571471e-002	2.000000e+000	6.012753e-002	4.849681e-002
5.156480000000045e-002	2.000000e+000	5.493378e-002	4.862665e-002
5.269337142857191e-002	2.000000e+000	5.009354e-002	4.874766e-002
5.382194285714338e-002	2.000000e+000	4.560622e-002	4.885984e-002
5.495051428571483e-002	2.000000e+000	4.147183e-002	4.896321e-002
5.607908571428630e-002	2.000000e+000	3.769036e-002	4.905774e-002
5.720765714285776e-002	2.000000e+000	3.426181e-002	4.914346e-002
5.833622857142922e-002	2.000000e+000	3.118619e-002	4.922035e-002
5.946480000000068e-002	2.000000e+000	2.846350e-002	4.928841e-002
6.010100000000000e-002	2.000000e+000	2.699583e-002	4.932510e-002
6.010200000000000e-002	-2.000000e+000	-3.972838e+000	4.932095e-002
6.083968571428559e-002	-2.000000e+000	-3.737909e+000	4.344773e-002
6.157737142857118e-002	-2.000000e+000	-3.515135e+000	3.787837e-002
6.231505714285678e-002	-2.000000e+000	-3.304515e+000	3.261287e-002
6.305274285714238e-002	-2.000000e+000	-3.106049e+000	2.765122e-002
6.379042857142797e-002	-2.000000e+000	-2.919737e+000	2.299343e-002
6.452811428571358e-002	-2.000000e+000	-2.745580e+000	1.863950e-002
6.526579999999917e-002	-2.000000e+000	-2.583577e+000	1.458943e-002
6.568008571428489e-002	-2.000000e+000	-2.496143e+000	1.240357e-002
6.609437142857062e-002	-2.000000e+000	-2.411441e+000	1.028604e-002
6.650865714285635e-002	-2.000000e+000	-2.329473e+000	8.236816e-003
6.692294285714207e-002	-2.000000e+000	-2.250237e+000	6.255916e-003
6.733722857142779e-002	-2.000000e+000	-2.173733e+000	4.343334e-003
6.775151428571352e-002	-2.000000e+000	-2.099963e+000	2.499072e-003
6.816579999999925e-002	-2.000000e+000	-2.028925e+000	7.231287e-004
6.826579999999925e-002	-2.000000e+000	-2.012088e+000	3.021897e-004
6.836579999999926e-002	-2.000000e+000	-1.995390e+000	-1.152558e-004
6.846579999999926e-002	-2.000000e+000	-1.978830e+000	-5.292370e-004
6.866579999999926e-002	-2.000000e+000	-1.946123e+000	-1.346921e-003
6.896579999999927e-002	-2.000000e+000	-1.898073e+000	-2.548176e-003
6.955151428571357e-002	-2.000000e+000	-1.808130e+000	-4.796759e-003
7.013722857142787e-002	-2.000000e+000	-1.722009e+000	-6.949779e-003
7.072294285714217e-002	-2.000000e+000	-1.639710e+000	-9.007237e-003
7.130865714285649e-002	-2.000000e+000	-1.561235e+000	-1.096913e-002
7.189437142857079e-002	-2.000000e+000	-1.486581e+000	-1.283546e-002
7.248008571428509e-002	-2.000000e+000	-1.415751e+000	-1.460623e-002
7.306579999999939e-002	-2.000000e+000	-1.348742e+000	-1.628144e-002
7.413722857142799e-002	-2.000000e+000	-1.235379e+000	-1.911552e-002
7.520865714285660e-002	-2.000000e+000	-1.129956e+000	-2.175110e-002
7.628008571428520e-002	-2.000000e+000	-1.032473e+000	-2.418818e-002
7.735151428571380e-002	-2.000000e+000	-9.429296e-001	-2.642676e-002
7.842294285714241e-002	-2.000000e+000	-8.613262e-001	-2.846685e-002
7.949437142857101e-002	-2.000000e+000	-7.876627e-001	-3.030843e-002
8.056579999999960e-002	-2.000000e+000	-7.219392e-001	-3.195152e-002
8.166579999999964e-002	-2.000000e+000	-6.597649e-001	-3.350588e-002
8.276579999999967e-002	-2.000000e+000	-6.020351e-001	-3.494912e-002
8.386579999999970e-002	-2.000000e+000	-5.487500e-001	-3.628125e-002
8.496579999999973e-002	-2.000000e+000	-4.999094e-001	-3.750226e-002
8.606579999999976e-002	-2.000000e+000	-4.555135e-001	-3.861216e-002
8.716579999999979e-002	-2.000000e+000	-4.155621e-001	-3.961095e-002
8.826579999999983e-002	-2.000000e+000	-3.800553e-001	-4.049862e-002
8.920865714285700e-002	-2.000000e+000	-3.517042e-001	-4.120740e-002
9.015151428571416e-002	-2.000000e+000	-3.251480e-001	-4.187130e-002
9.109437142857134e-002	-2.000000e+000	-3.003867e-001	-4.249033e-002
9.203722857142850e-002	-2.000000e+000	-2.774203e-001	-4.306449e-002
9.298008571428568e-002	-2.000000e+000	-2.562487e-001	-4.359378e-002
9.392294285714285e-002	-2.000000e+000	-2.368721e-001	-4.407820e-002
9.486580000000001e-002	-2.000000e+000	-2.192903e-001	-4.451774e-002
9.496580000000002e-002	-2.000000e+000	-2.174708e-001	-4.456323e-002
9.606580000000005e-002	-2.000000e+000	-1.987450e-001	-4.503138e-002
9.716580000000008e-002	-2.000000e+000	-1.813577e-001	-4.546606e-002
9.826580000000011e-002	-2.000000e+000	-1.653091e-001	-4.586727e-002
9.936580000000014e-002	-2.000000e+000	-1.505992e-001	-4.623502e-002
1.004658000000002e-001	-2.000000e+000	-1.372279e-001	-4.656930e-002
1.015658000000002e-001	-2.000000e+000	-1.251952e-001	-4.687012e-002
1.026658000000002e-001	-2.000000e+000	-1.145012e-001	-4.713747e-002
1.037800857142860e-001	-2.000000e+000	-1.045256e-001	-4.738686e-002
1.048943714285717e-001	-2.000000e+000	-9.527026e-002	-4.761824e-002
1.060086571428575e-001	-2.000000e+000	-8.673519e-002	-4.783162e-002
1.071229428571432e-001	-2.000000e+000	-7.892039e-002	-4.802699e-002
1.082372285714290e-001	-2.000000e+000	-7.182585e-002	-4.820435e-002
1.093515142857147e-001	-2.000000e+000	-6.545157e-002	-4.836371e-002
1.104658000000005e-001	-2.000000e+000	-5.979756e-002	-4.850506e-002
1.115943714285719e-001	-2.000000e+000	-5.452837e-002	-4.863679e-002
1.127229428571434e-001	-2.000000e+000	-4.964339e-002	-4.875891e-002
1.138515142857148e-001	-2.000000e+000	-4.514261e-002	-4.887143e-002
1.149800857142863e-001	-2.000000e+000	-4.102602e-002	-4.897435e-002
1.161086571428578e-001	-2.000000e+000	-3.729364e-002	-4.906766e-002
1.172372285714292e-001	-2.000000e+000	-3.394546e-002	-4.915136e-002
1.183658000000007e-001	-2.000000e+000	-3.098148e-002	-4.922546e-002
1.199658000000007e-001	-2.000000e+000	-2.711999e-002	-4.932200e-002
1.200000000000000e-001	-2.000000e+000	-2.704279e-002	-4.932393e-002
