time	V(N003,N002)	V(n001)	V(n003)	I(R1)
0.000000000000000e+000	2.000000e+000	6.000000e-019	2.000000e+000	6.000000e-016
1.000000000000000e-004	2.000000e+000	-9.477400e-016	2.000000e+000	5.998927e-016
1.000314105955646e-004	2.000000e+000	-1.256416e-001	1.874358e+000	-4.753085e-009
1.000628211911292e-004	2.000000e+000	-2.512816e-001	1.748715e+000	-1.977067e-008
1.000942317866938e-004	2.000000e+000	-3.769199e-001	1.623073e+000	-4.505276e-008
1.001256423822584e-004	2.000000e+000	-5.025566e-001	1.497431e+000	-8.059936e-008
1.001570529778230e-004	2.000000e+000	-6.281917e-001	1.371788e+000	-1.264105e-007
1.001884635733876e-004	2.000000e+000	-7.538251e-001	1.246146e+000	-1.824861e-007
1.002198741689522e-004	2.000000e+000	-8.794569e-001	1.120503e+000	-2.488262e-007
1.004331405673571e-004	2.000000e+000	-1.732427e+000	2.674377e-001	-8.440346e-007
1.005734672031902e-004	2.000000e+000	-2.293643e+000	-2.938688e-001	-1.412843e-006
1.007193467283337e-004	2.000000e+000	-2.877028e+000	-8.773869e-001	-2.241205e-006
1.010000000000000e-004	2.000000e+000	-3.999333e+000	-2.000000e+000	-4.166223e-006
1.338404421174097e-004	1.999980e+000	-3.955846e+000	-2.000000e+000	-2.758376e-004
1.666808842348194e-004	1.999925e+000	-3.912892e+000	-2.000000e+000	-5.439538e-004
1.995213263522291e-004	1.999834e+000	-3.870471e+000	-2.000000e+000	-8.085149e-004
2.323617684696388e-004	1.999707e+000	-3.828584e+000	-2.000000e+000	-1.069521e-003
2.652022105870485e-004	1.999546e+000	-3.787230e+000	-2.000000e+000	-1.326972e-003
2.980426527044582e-004	1.999348e+000	-3.746409e+000	-2.000000e+000	-1.580868e-003
3.308830948218678e-004	1.999116e+000	-3.706122e+000	-2.000000e+000	-1.831208e-003
5.607942549709023e-004	1.996679e+000	-3.436355e+000	-2.000000e+000	-3.502020e-003
9.607942549709023e-004	1.989851e+000	-3.006402e+000	-2.000000e+000	-6.146557e-003
1.360794254970902e-003	1.980093e+000	-2.621454e+000	-2.000000e+000	-8.491492e-003
1.760794254970902e-003	1.967409e+000	-2.281883e+000	-2.000000e+000	-1.053454e-002
2.160794254970902e-003	1.952178e+000	-1.982370e+000	-2.000000e+000	-1.231130e-002
2.560794254970902e-003	1.934735e+000	-1.718222e+000	-2.000000e+000	-1.385321e-002
2.960794254970903e-003	1.915375e+000	-1.485296e+000	-2.000000e+000	-1.518799e-002
3.360794254970903e-003	1.894356e+000	-1.279931e+000	-2.000000e+000	-1.634016e-002
3.760794254970903e-003	1.871908e+000	-1.098897e+000	-2.000000e+000	-1.733132e-002
4.160794254970903e-003	1.848233e+000	-9.393419e-001	-2.000000e+000	-1.818057e-002
4.560794254970903e-003	1.823510e+000	-7.987481e-001	-2.000000e+000	-1.890476e-002
4.960794254970903e-003	1.797894e+000	-6.748923e-001	-2.000000e+000	-1.951876e-002
5.360794254970903e-003	1.771525e+000	-5.658118e-001	-2.000000e+000	-2.003571e-002
5.760794254970903e-003	1.744523e+000	-4.697735e-001	-2.000000e+000	-2.046718e-002
6.160794254970904e-003	1.716996e+000	-3.852477e-001	-2.000000e+000	-2.082342e-002
6.560794254970904e-003	1.689038e+000	-3.108838e-001	-2.000000e+000	-2.111346e-002
6.960794254970904e-003	1.660732e+000	-2.454893e-001	-2.000000e+000	-2.134527e-002
7.360794254970904e-003	1.632151e+000	-1.880114e-001	-2.000000e+000	-2.152587e-002
7.760794254970904e-003	1.603359e+000	-1.375206e-001	-2.000000e+000	-2.166149e-002
8.160794254970905e-003	1.574413e+000	-9.319625e-002	-2.000000e+000	-2.175761e-002
8.560794254970904e-003	1.545362e+000	-5.431403e-002	-2.000000e+000	-2.181905e-002
8.960794254970903e-003	1.516250e+000	-2.023429e-002	-2.000000e+000	-2.185010e-002
9.360794254970902e-003	1.487113e+000	9.607639e-003	-2.000000e+000	-2.185450e-002
9.760794254970902e-003	1.457986e+000	3.571027e-002	-2.000000e+000	-2.183560e-002
1.016079425497090e-002	1.428898e+000	5.851372e-002	-2.000000e+000	-2.179633e-002
1.056079425497090e-002	1.399875e+000	7.840652e-002	-2.000000e+000	-2.173926e-002
1.096079425497090e-002	1.370937e+000	9.573171e-002	-2.000000e+000	-2.166668e-002
1.136079425497090e-002	1.342106e+000	1.107921e-001	-2.000000e+000	-2.158061e-002
1.176079425497090e-002	1.313397e+000	1.238550e-001	-2.000000e+000	-2.148283e-002
1.216079425497090e-002	1.284825e+000	1.351566e-001	-2.000000e+000	-2.137488e-002
1.256079425497090e-002	1.256403e+000	1.449050e-001	-2.000000e+000	-2.125818e-002
1.296079425497090e-002	1.228142e+000	1.532843e-001	-2.000000e+000	-2.113391e-002
1.336079425497090e-002	1.200050e+000	1.604568e-001	-2.000000e+000	-2.100317e-002
1.376079425497090e-002	1.172137e+000	1.665659e-001	-2.000000e+000	-2.086689e-002
1.456079425497089e-002	1.116870e+000	1.760850e-001	-2.000000e+000	-2.058097e-002
1.536079425497089e-002	1.062385e+000	1.826862e-001	-2.000000e+000	-2.028169e-002
1.616079425497089e-002	1.008711e+000	1.870273e-001	-2.000000e+000	-1.997336e-002
1.736079425497090e-002	9.297595e-001	1.903911e-001	-2.000000e+000	-1.950094e-002
1.821793711211376e-002	8.745455e-001	1.906528e-001	-2.000000e+000	-1.915749e-002
1.907507996925662e-002	8.202924e-001	1.903776e-001	-2.000000e+000	-1.881669e-002
1.993222282639948e-002	7.670001e-001	1.895657e-001	-2.000000e+000	-1.847854e-002
2.078936568354234e-002	7.146687e-001	1.882170e-001	-2.000000e+000	-1.814304e-002
2.164650854068520e-002	6.632982e-001	1.863314e-001	-2.000000e+000	-1.781019e-002
2.250365139782806e-002	6.128886e-001	1.839091e-001	-2.000000e+000	-1.747999e-002
2.336079425497091e-002	5.634398e-001	1.809499e-001	-2.000000e+000	-1.715244e-002
2.576079425497091e-002	4.305910e-001	1.725388e-001	-2.000000e+000	-1.626956e-002
2.816079425497091e-002	3.038493e-001	1.643366e-001	-2.000000e+000	-1.542616e-002
3.056079425497090e-002	1.832149e-001	1.563432e-001	-2.000000e+000	-1.462224e-002
3.296079425497089e-002	6.868768e-002	1.485586e-001	-2.000000e+000	-1.385779e-002
3.536079425497089e-002	-3.973228e-002	1.409829e-001	-2.000000e+000	-1.313282e-002
3.776079425497089e-002	-1.420450e-001	1.336160e-001	-2.000000e+000	-1.244732e-002
4.016079425497088e-002	-2.382505e-001	1.264579e-001	-2.000000e+000	-1.180130e-002
4.421793711211371e-002	-3.883345e-001	1.156903e-001	-2.000000e+000	-1.079597e-002
4.827507996925655e-002	-5.277875e-001	1.056844e-001	-2.000000e+000	-9.861856e-003
5.233222282639938e-002	-6.566096e-001	9.644018e-002	-2.000000e+000	-8.998941e-003
5.638936568354221e-002	-7.748007e-001	8.795770e-002	-2.000000e+000	-8.207232e-003
6.044650854068505e-002	-8.823608e-001	8.023693e-002	-2.000000e+000	-7.486726e-003
6.450365139782788e-002	-9.792900e-001	7.327787e-002	-2.000000e+000	-6.837424e-003
6.856079425497071e-002	-1.065588e+000	6.708052e-002	-2.000000e+000	-6.259327e-003
7.261793711211353e-002	-1.145191e+000	6.136590e-002	-2.000000e+000	-5.726092e-003
7.667507996925638e-002	-1.219156e+000	5.605606e-002	-2.000000e+000	-5.230628e-003
8.073222282639921e-002	-1.287481e+000	5.115101e-002	-2.000000e+000	-4.772935e-003
8.478936568354203e-002	-1.350169e+000	4.665076e-002	-2.000000e+000	-4.353013e-003
8.884650854068488e-002	-1.407217e+000	4.255529e-002	-2.000000e+000	-3.970862e-003
9.290365139782771e-002	-1.458628e+000	3.886461e-002	-2.000000e+000	-3.626482e-003
9.696079425497053e-002	-1.504399e+000	3.557872e-002	-2.000000e+000	-3.319873e-003
1.010179371121134e-001	-1.546619e+000	3.254775e-002	-2.000000e+000	-3.037052e-003
1.050750799692562e-001	-1.585849e+000	2.973147e-002	-2.000000e+000	-2.774263e-003
1.091322228263990e-001	-1.622089e+000	2.712989e-002	-2.000000e+000	-2.531508e-003
1.131893656835419e-001	-1.655337e+000	2.474301e-002	-2.000000e+000	-2.308786e-003
1.172465085406847e-001	-1.685595e+000	2.257082e-002	-2.000000e+000	-2.106098e-003
1.213036513978276e-001	-1.712862e+000	2.061333e-002	-2.000000e+000	-1.923443e-003
1.253607942549704e-001	-1.737139e+000	1.887053e-002	-2.000000e+000	-1.760822e-003
1.294179371121134e-001	-1.759532e+000	1.726294e-002	-2.000000e+000	-1.610816e-003
1.334750799692563e-001	-1.780339e+000	1.576922e-002	-2.000000e+000	-1.471436e-003
1.375322228263993e-001	-1.799560e+000	1.438938e-002	-2.000000e+000	-1.342682e-003
1.415893656835423e-001	-1.817195e+000	1.312340e-002	-2.000000e+000	-1.224553e-003
1.456465085406853e-001	-1.833243e+000	1.197130e-002	-2.000000e+000	-1.117050e-003
1.497036513978282e-001	-1.847706e+000	1.093307e-002	-2.000000e+000	-1.020172e-003
1.537607942549712e-001	-1.860582e+000	1.000871e-002	-2.000000e+000	-9.339190e-004
1.578179371121142e-001	-1.872459e+000	9.156061e-003	-2.000000e+000	-8.543580e-004
1.618750799692572e-001	-1.883495e+000	8.363810e-003	-2.000000e+000	-7.804325e-004
1.659322228264001e-001	-1.893689e+000	7.631956e-003	-2.000000e+000	-7.121427e-004
1.699893656835431e-001	-1.903042e+000	6.960498e-003	-2.000000e+000	-6.494885e-004
1.740465085406861e-001	-1.911554e+000	6.349436e-003	-2.000000e+000	-5.924700e-004
1.781036513978290e-001	-1.919225e+000	5.798770e-003	-2.000000e+000	-5.410870e-004
1.821607942549720e-001	-1.926054e+000	5.308500e-003	-2.000000e+000	-4.953397e-004
1.862179371121150e-001	-1.932354e+000	4.856267e-003	-2.000000e+000	-4.531414e-004
1.902750799692580e-001	-1.938207e+000	4.436066e-003	-2.000000e+000	-4.139323e-004
1.943322228264009e-001	-1.943614e+000	4.047899e-003	-2.000000e+000	-3.777121e-004
1.983893656835439e-001	-1.948575e+000	3.691766e-003	-2.000000e+000	-3.444811e-004
2.024465085406869e-001	-1.953089e+000	3.367666e-003	-2.000000e+000	-3.142391e-004
2.065036513978298e-001	-1.957158e+000	3.075599e-003	-2.000000e+000	-2.869862e-004
2.105607942549728e-001	-1.960780e+000	2.815566e-003	-2.000000e+000	-2.627223e-004
2.146179371121158e-001	-1.964121e+000	2.575707e-003	-2.000000e+000	-2.403409e-004
2.186750799692588e-001	-1.967226e+000	2.352837e-003	-2.000000e+000	-2.195448e-004
2.227322228264017e-001	-1.970094e+000	2.146958e-003	-2.000000e+000	-2.003341e-004
2.267893656835447e-001	-1.972725e+000	1.958069e-003	-2.000000e+000	-1.827087e-004
2.308465085406877e-001	-1.975119e+000	1.786170e-003	-2.000000e+000	-1.666687e-004
2.349036513978307e-001	-1.977277e+000	1.631262e-003	-2.000000e+000	-1.522141e-004
2.389607942549736e-001	-1.979198e+000	1.493343e-003	-2.000000e+000	-1.393448e-004
2.430179371121166e-001	-1.980970e+000	1.366124e-003	-2.000000e+000	-1.274740e-004
2.470750799692596e-001	-1.982617e+000	1.247917e-003	-2.000000e+000	-1.164440e-004
2.511322228264026e-001	-1.984138e+000	1.138721e-003	-2.000000e+000	-1.062548e-004
2.551893656835456e-001	-1.985533e+000	1.038537e-003	-2.000000e+000	-9.690654e-005
2.592465085406885e-001	-1.986804e+000	9.473637e-004	-2.000000e+000	-8.839912e-005
2.633036513978315e-001	-1.987948e+000	8.652020e-004	-2.000000e+000	-8.073256e-005
2.673607942549744e-001	-1.988967e+000	7.920517e-004	-2.000000e+000	-7.390685e-005
2.714750799692603e-001	-1.989919e+000	7.236977e-004	-2.000000e+000	-6.752870e-005
2.755893656835461e-001	-1.990803e+000	6.602383e-004	-2.000000e+000	-6.160726e-005
2.797036513978319e-001	-1.991619e+000	6.016734e-004	-2.000000e+000	-5.614253e-005
2.838179371121178e-001	-1.992366e+000	5.480031e-004	-2.000000e+000	-5.113452e-005
2.879322228264036e-001	-1.993046e+000	4.992273e-004	-2.000000e+000	-4.658323e-005
2.920465085406894e-001	-1.993657e+000	4.553461e-004	-2.000000e+000	-4.248864e-005
2.961607942549753e-001	-1.994200e+000	4.163594e-004	-2.000000e+000	-3.885077e-005
3.001010000000000e-001	-1.994689e+000	3.812855e-004	-2.000000e+000	-3.557797e-005
3.001013000000000e-001	-1.994689e+000	1.200295e+000	-8.000000e-001	-3.503610e-005
3.001016000000000e-001	-1.994689e+000	2.400095e+000	4.000000e-001	-3.378600e-005
3.001020000000000e-001	-1.994689e+000	3.999708e+000	2.000000e+000	-3.136934e-005
3.001253999999974e-001	-1.994682e+000	3.968660e+000	2.000000e+000	1.626356e-004
3.001487999999948e-001	-1.994656e+000	3.937886e+000	2.000000e+000	3.548087e-004
3.001721999999922e-001	-1.994612e+000	3.907388e+000	2.000000e+000	5.451501e-004
3.001955999999897e-001	-1.994550e+000	3.877164e+000	2.000000e+000	7.336597e-004
3.002189999999871e-001	-1.994469e+000	3.847215e+000	2.000000e+000	9.203375e-004
3.002423999999845e-001	-1.994371e+000	3.817541e+000	2.000000e+000	1.105183e-003
3.002657999999819e-001	-1.994254e+000	3.788142e+000	2.000000e+000	1.288198e-003
3.004296399999639e-001	-1.992963e+000	3.589422e+000	2.000000e+000	2.522131e-003
3.007573199999279e-001	-1.988508e+000	3.220441e+000	2.000000e+000	4.800416e-003
3.011573199999279e-001	-1.980282e+000	2.812610e+000	2.000000e+000	7.297951e-003
3.015573199999279e-001	-1.969090e+000	2.450542e+000	2.000000e+000	9.490924e-003
3.019573199999279e-001	-1.955162e+000	2.131169e+000	2.000000e+000	1.139996e-002
3.023573199999279e-001	-1.938857e+000	1.849488e+000	2.000000e+000	1.305856e-002
3.027573199999279e-001	-1.920487e+000	1.601081e+000	2.000000e+000	1.449628e-002
3.031573199999280e-001	-1.900330e+000	1.382051e+000	2.000000e+000	1.573924e-002
3.035573199999280e-001	-1.878630e+000	1.188953e+000	2.000000e+000	1.681048e-002
3.039573199999280e-001	-1.855603e+000	1.018748e+000	2.000000e+000	1.773034e-002
3.043573199999280e-001	-1.831438e+000	8.687524e-001	2.000000e+000	1.851678e-002
3.047573199999280e-001	-1.806303e+000	7.365967e-001	2.000000e+000	1.918566e-002
3.051573199999280e-001	-1.780345e+000	6.201891e-001	2.000000e+000	1.975098e-002
3.055573199999280e-001	-1.753695e+000	5.176829e-001	2.000000e+000	2.022507e-002
3.059573199999280e-001	-1.726465e+000	4.274477e-001	2.000000e+000	2.061886e-002
3.063573199999281e-001	-1.698758e+000	3.480438e-001	2.000000e+000	2.094197e-002
3.067573199999281e-001	-1.670661e+000	2.782004e-001	2.000000e+000	2.120288e-002
3.071573199999281e-001	-1.642253e+000	2.167955e-001	2.000000e+000	2.140911e-002
3.075573199999281e-001	-1.613603e+000	1.628385e-001	2.000000e+000	2.156727e-002
3.079573199999281e-001	-1.584769e+000	1.154549e-001	2.000000e+000	2.168321e-002
3.083573199999281e-001	-1.555805e+000	7.387242e-002	2.000000e+000	2.176208e-002
3.087573199999281e-001	-1.526758e+000	3.740952e-002	2.000000e+000	2.180843e-002
3.091573199999281e-001	-1.497669e+000	5.464365e-003	2.000000e+000	2.182628e-002
3.095573199999281e-001	-1.468572e+000	-2.249435e-002	2.000000e+000	2.181916e-002
3.099573199999282e-001	-1.439499e+000	-4.693569e-002	2.000000e+000	2.179022e-002
3.103573199999282e-001	-1.410477e+000	-6.827377e-002	2.000000e+000	2.174219e-002
3.107573199999282e-001	-1.381531e+000	-8.687416e-002	2.000000e+000	2.167753e-002
3.111573199999282e-001	-1.352680e+000	-1.030596e-001	2.000000e+000	2.159837e-002
3.115573199999282e-001	-1.323943e+000	-1.171151e-001	2.000000e+000	2.150661e-002
3.119573199999282e-001	-1.295336e+000	-1.292921e-001	2.000000e+000	2.140393e-002
3.123573199999282e-001	-1.266873e+000	-1.398128e-001	2.000000e+000	2.129178e-002
3.127573199999282e-001	-1.238564e+000	-1.488730e-001	2.000000e+000	2.117148e-002
3.131573199999282e-001	-1.210420e+000	-1.566461e-001	2.000000e+000	2.104416e-002
3.135573199999283e-001	-1.182450e+000	-1.632846e-001	2.000000e+000	2.091084e-002
3.139573199999283e-001	-1.154661e+000	-1.689234e-001	2.000000e+000	2.077240e-002
3.147573199999283e-001	-1.099651e+000	-1.776644e-001	2.000000e+000	2.048322e-002
3.155573199999283e-001	-1.045429e+000	-1.836636e-001	2.000000e+000	2.018183e-002
3.167573199999283e-001	-9.656310e-001	-1.888373e-001	2.000000e+000	1.971543e-002
3.179573199999284e-001	-8.877180e-001	-1.907469e-001	2.000000e+000	1.924041e-002
3.188716057142141e-001	-8.296614e-001	-1.902546e-001	2.000000e+000	1.887447e-002
3.197858914284998e-001	-7.726870e-001	-1.892958e-001	2.000000e+000	1.851239e-002
3.207001771427856e-001	-7.167949e-001	-1.878707e-001	2.000000e+000	1.815416e-002
3.216144628570714e-001	-6.619851e-001	-1.859792e-001	2.000000e+000	1.779978e-002
3.225287485713571e-001	-6.082576e-001	-1.836213e-001	2.000000e+000	1.744924e-002
3.234430342856428e-001	-5.556123e-001	-1.807971e-001	2.000000e+000	1.710256e-002
3.243573199999286e-001	-5.040493e-001	-1.775065e-001	2.000000e+000	1.675972e-002
3.278430342856429e-001	-3.189367e-001	-1.651250e-001	2.000000e+000	1.552539e-002
3.313287485713574e-001	-1.454447e-001	-1.533826e-001	2.000000e+000	1.436767e-002
3.348144628570717e-001	1.642664e-002	-1.422794e-001	2.000000e+000	1.328658e-002
3.383001771427861e-001	1.666774e-001	-1.318153e-001	2.000000e+000	1.228211e-002
3.417858914285005e-001	3.053075e-001	-1.219903e-001	2.000000e+000	1.135427e-002
3.452716057142149e-001	4.323170e-001	-1.128044e-001	2.000000e+000	1.050305e-002
3.487573199999293e-001	5.477059e-001	-1.042577e-001	2.000000e+000	9.728448e-003
3.516144628570722e-001	6.366862e-001	-9.787029e-002	2.000000e+000	9.132401e-003
3.544716057142152e-001	7.209158e-001	-9.182386e-002	2.000000e+000	8.568175e-003
3.573287485713581e-001	8.003950e-001	-8.611839e-002	2.000000e+000	8.035771e-003
3.601858914285010e-001	8.751235e-001	-8.075386e-002	2.000000e+000	7.535190e-003
3.630430342856439e-001	9.451014e-001	-7.573028e-002	2.000000e+000	7.066430e-003
3.659001771427869e-001	1.010329e+000	-7.104765e-002	2.000000e+000	6.629493e-003
3.687573199999298e-001	1.070806e+000	-6.670597e-002	2.000000e+000	6.224378e-003
3.691573199999298e-001	1.079068e+000	-6.611283e-002	2.000000e+000	6.169031e-003
3.732144628570728e-001	1.157523e+000	-6.048064e-002	2.000000e+000	5.643488e-003
3.772716057142158e-001	1.230420e+000	-5.524741e-002	2.000000e+000	5.155172e-003
3.813287485713588e-001	1.297760e+000	-5.041312e-002	2.000000e+000	4.704081e-003
3.853858914285018e-001	1.359543e+000	-4.597778e-002	2.000000e+000	4.290217e-003
3.894430342856447e-001	1.415769e+000	-4.194139e-002	2.000000e+000	3.913579e-003
3.935001771427877e-001	1.466437e+000	-3.830396e-002	2.000000e+000	3.574167e-003
3.975573199999307e-001	1.511548e+000	-3.506547e-002	2.000000e+000	3.271982e-003
4.016144628570736e-001	1.553160e+000	-3.207822e-002	2.000000e+000	2.993240e-003
4.056716057142166e-001	1.591824e+000	-2.930257e-002	2.000000e+000	2.734242e-003
4.097287485713596e-001	1.627540e+000	-2.673853e-002	2.000000e+000	2.494989e-003
4.137858914285025e-001	1.660309e+000	-2.438607e-002	2.000000e+000	2.275480e-003
4.178430342856455e-001	1.690131e+000	-2.224522e-002	2.000000e+000	2.075716e-003
4.219001771427885e-001	1.717005e+000	-2.031597e-002	2.000000e+000	1.895696e-003
4.259573199999315e-001	1.740931e+000	-1.859831e-002	2.000000e+000	1.735420e-003
4.300144628570745e-001	1.763001e+000	-1.701391e-002	2.000000e+000	1.587579e-003
4.340716057142174e-001	1.783508e+000	-1.554174e-002	2.000000e+000	1.450210e-003
4.381287485713604e-001	1.802452e+000	-1.418180e-002	2.000000e+000	1.323313e-003
4.421858914285034e-001	1.819832e+000	-1.293409e-002	2.000000e+000	1.206888e-003
4.462430342856463e-001	1.835649e+000	-1.179860e-002	2.000000e+000	1.100935e-003
4.503001771427893e-001	1.849903e+000	-1.077535e-002	2.000000e+000	1.005455e-003
4.543573199999323e-001	1.862593e+000	-9.864325e-003	2.000000e+000	9.204465e-004
4.584144628570753e-001	1.874299e+000	-9.023978e-003	2.000000e+000	8.420332e-004
4.624716057142183e-001	1.885175e+000	-8.243156e-003	2.000000e+000	7.691742e-004
4.665287485713612e-001	1.895223e+000	-7.521859e-003	2.000000e+000	7.018695e-004
4.705858914285042e-001	1.904441e+000	-6.860087e-003	2.000000e+000	6.401191e-004
4.746430342856471e-001	1.912830e+000	-6.257840e-003	2.000000e+000	5.839231e-004
4.787001771427901e-001	1.920390e+000	-5.715118e-003	2.000000e+000	5.332814e-004
4.827573199999331e-001	1.927121e+000	-5.231922e-003	2.000000e+000	4.881940e-004
4.868144628570759e-001	1.933329e+000	-4.786211e-003	2.000000e+000	4.466045e-004
4.908716057142186e-001	1.939098e+000	-4.372073e-003	2.000000e+000	4.079609e-004
4.949287485713614e-001	1.944427e+000	-3.989505e-003	2.000000e+000	3.722633e-004
4.989858914285041e-001	1.949317e+000	-3.638509e-003	2.000000e+000	3.395117e-004
5.030430342856469e-001	1.953766e+000	-3.319085e-003	2.000000e+000	3.097059e-004
5.071001771427897e-001	1.957776e+000	-3.031231e-003	2.000000e+000	2.828462e-004
5.111573199999324e-001	1.961346e+000	-2.774950e-003	2.000000e+000	2.589324e-004
5.152144628570748e-001	1.964639e+000	-2.538550e-003	2.000000e+000	2.368738e-004
