time	V(n001)	V(n002)	I(R1)
0.000000000000000e+000	-2.000000e+000	-2.000000e+000	-5.939693e-016
1.000000000000000e-004	-2.000000e+000	-2.000000e+000	-5.606626e-016
1.010000000000000e-004	2.000000e+000	-1.999832e+000	9.999579e-002
8.386857142857145e-004	2.000000e+000	-1.763309e+000	9.408273e-002
1.576371428571429e-003	2.000000e+000	-1.539023e+000	8.847559e-002
2.314057142857144e-003	2.000000e+000	-1.326974e+000	8.317435e-002
3.051742857142858e-003	2.000000e+000	-1.127161e+000	7.817903e-002
3.789428571428573e-003	2.000000e+000	-9.395850e-001	7.348962e-002
4.527114285714288e-003	2.000000e+000	-7.642452e-001	6.910613e-002
5.264800000000000e-003	2.000000e+000	-6.011419e-001	6.502855e-002
5.679085714285715e-003	2.000000e+000	-5.131136e-001	6.282784e-002
6.093371428571430e-003	2.000000e+000	-4.278366e-001	6.069592e-002
6.507657142857145e-003	2.000000e+000	-3.453108e-001	5.863277e-002
6.921942857142861e-003	2.000000e+000	-2.655363e-001	5.663841e-002
7.336228571428576e-003	2.000000e+000	-1.885131e-001	5.471283e-002
7.750514285714291e-003	2.000000e+000	-1.142411e-001	5.285603e-002
8.164800000000005e-003	2.000000e+000	-4.272044e-002	5.106801e-002
8.364800000000004e-003	2.000000e+000	-8.957042e-003	5.022392e-002
8.464800000000003e-003	2.000000e+000	7.714801e-003	4.980713e-002
8.664800000000002e-003	2.000000e+000	4.064457e-002	4.898389e-002
8.964800000000000e-003	2.000000e+000	8.902150e-002	4.777446e-002
9.536228571428568e-003	2.000000e+000	1.774414e-001	4.556397e-002
1.010765714285714e-002	2.000000e+000	2.621834e-001	4.344542e-002
1.067908571428571e-002	2.000000e+000	3.432477e-001	4.141881e-002
1.125051428571427e-002	2.000000e+000	4.206341e-001	3.948415e-002
1.182194285714284e-002	2.000000e+000	4.943428e-001	3.764143e-002
1.239337142857141e-002	2.000000e+000	5.643736e-001	3.589066e-002
1.296479999999998e-002	2.000000e+000	6.307267e-001	3.423183e-002
1.402194285714283e-002	2.000000e+000	7.443928e-001	3.139018e-002
1.507908571428568e-002	2.000000e+000	8.501808e-001	2.874548e-002
1.613622857142853e-002	2.000000e+000	9.480908e-001	2.629773e-002
1.719337142857138e-002	2.000000e+000	1.038123e+000	2.404693e-002
1.825051428571423e-002	2.000000e+000	1.120277e+000	2.199308e-002
1.930765714285709e-002	2.000000e+000	1.194553e+000	2.013619e-002
2.036479999999993e-002	2.000000e+000	1.260950e+000	1.847624e-002
2.145051428571421e-002	2.000000e+000	1.323836e+000	1.690410e-002
2.253622857142849e-002	2.000000e+000	1.382272e+000	1.544321e-002
2.362194285714277e-002	2.000000e+000	1.436257e+000	1.409357e-002
2.470765714285705e-002	2.000000e+000	1.485793e+000	1.285518e-002
2.579337142857133e-002	2.000000e+000	1.530878e+000	1.172804e-002
2.687908571428561e-002	2.000000e+000	1.571514e+000	1.071215e-002
2.796479999999989e-002	2.000000e+000	1.607700e+000	9.807513e-003
2.905051428571419e-002	2.000000e+000	1.641080e+000	8.972993e-003
3.013622857142849e-002	2.000000e+000	1.672099e+000	8.197526e-003
3.122194285714279e-002	2.000000e+000	1.700755e+000	7.481114e-003
3.230765714285709e-002	2.000000e+000	1.727050e+000	6.823754e-003
3.339337142857139e-002	2.000000e+000	1.750982e+000	6.225449e-003
3.447908571428569e-002	2.000000e+000	1.772552e+000	5.686198e-003
3.556479999999999e-002	2.000000e+000	1.791760e+000	5.206000e-003
3.665051428571431e-002	2.000000e+000	1.809479e+000	4.763022e-003
3.773622857142863e-002	2.000000e+000	1.825944e+000	4.351390e-003
3.882194285714295e-002	2.000000e+000	1.841156e+000	3.971106e-003
3.990765714285726e-002	2.000000e+000	1.855113e+000	3.622168e-003
4.099337142857158e-002	2.000000e+000	1.867817e+000	3.304577e-003
4.207908571428590e-002	2.000000e+000	1.879267e+000	3.018333e-003
4.316480000000021e-002	2.000000e+000	1.889463e+000	2.763436e-003
4.425051428571453e-002	2.000000e+000	1.898868e+000	2.528295e-003
4.533622857142885e-002	2.000000e+000	1.907608e+000	2.309794e-003
4.642194285714316e-002	2.000000e+000	1.915683e+000	2.107932e-003
4.750765714285748e-002	2.000000e+000	1.923092e+000	1.922710e-003
4.859337142857180e-002	2.000000e+000	1.929835e+000	1.754127e-003
4.967908571428611e-002	2.000000e+000	1.935913e+000	1.602184e-003
5.076480000000043e-002	2.000000e+000	1.941325e+000	1.466880e-003
5.185051428571474e-002	2.000000e+000	1.946317e+000	1.342063e-003
5.293622857142907e-002	2.000000e+000	1.950957e+000	1.226079e-003
5.402194285714338e-002	2.000000e+000	1.955243e+000	1.118927e-003
5.510765714285770e-002	2.000000e+000	1.959176e+000	1.020608e-003
5.619337142857202e-002	2.000000e+000	1.962755e+000	9.311215e-004
5.727908571428633e-002	2.000000e+000	1.965981e+000	8.504673e-004
5.836480000000065e-002	2.000000e+000	1.968854e+000	7.786456e-004
5.861282857142913e-002	2.000000e+000	1.969491e+000	7.627349e-004
5.886085714285760e-002	2.000000e+000	1.970115e+000	7.471326e-004
5.910888571428608e-002	2.000000e+000	1.970726e+000	7.318387e-004
5.935691428571456e-002	2.000000e+000	1.971326e+000	7.168532e-004
5.960494285714304e-002	2.000000e+000	1.971913e+000	7.021760e-004
5.985297142857152e-002	2.000000e+000	1.972488e+000	6.878073e-004
6.010100000000000e-002	2.000000e+000	1.973050e+000	6.737469e-004
6.010200000000000e-002	-2.000000e+000	1.972884e+000	-9.932210e-002
6.083968571428559e-002	-2.000000e+000	1.737955e+000	-9.344888e-002
6.157737142857118e-002	-2.000000e+000	1.515180e+000	-8.787951e-002
6.231505714285678e-002	-2.000000e+000	1.304560e+000	-8.261399e-002
6.305274285714238e-002	-2.000000e+000	1.106093e+000	-7.765233e-002
6.379042857142797e-002	-2.000000e+000	9.197804e-001	-7.299451e-002
6.452811428571358e-002	-2.000000e+000	7.456219e-001	-6.864055e-002
6.526579999999917e-002	-2.000000e+000	5.836174e-001	-6.459044e-002
6.568008571428489e-002	-2.000000e+000	4.961822e-001	-6.240456e-002
6.609437142857062e-002	-2.000000e+000	4.114798e-001	-6.028699e-002
6.650865714285635e-002	-2.000000e+000	3.295100e-001	-5.823775e-002
6.692294285714207e-002	-2.000000e+000	2.502730e-001	-5.625682e-002
6.733722857142779e-002	-2.000000e+000	1.737687e-001	-5.434422e-002
6.775151428571352e-002	-2.000000e+000	9.999708e-002	-5.249993e-002
6.816579999999925e-002	-2.000000e+000	2.895824e-002	-5.072396e-002
6.826579999999925e-002	-2.000000e+000	1.212041e-002	-5.030301e-002
6.836579999999926e-002	-2.000000e+000	-4.577686e-003	-4.988556e-002
6.846579999999926e-002	-2.000000e+000	-2.113721e-002	-4.947157e-002
6.866579999999926e-002	-2.000000e+000	-5.384512e-002	-4.865387e-002
6.896579999999927e-002	-2.000000e+000	-1.018961e-001	-4.745260e-002
6.955151428571357e-002	-2.000000e+000	-1.918411e-001	-4.520397e-002
7.013722857142787e-002	-2.000000e+000	-2.779636e-001	-4.305091e-002
7.072294285714217e-002	-2.000000e+000	-3.602636e-001	-4.099341e-002
7.130865714285649e-002	-2.000000e+000	-4.387411e-001	-3.903147e-002
7.189437142857079e-002	-2.000000e+000	-5.133961e-001	-3.716510e-002
7.248008571428509e-002	-2.000000e+000	-5.842285e-001	-3.539429e-002
7.306579999999939e-002	-2.000000e+000	-6.512384e-001	-3.371904e-002
7.413722857142799e-002	-2.000000e+000	-7.646047e-001	-3.088488e-002
7.520865714285660e-002	-2.000000e+000	-8.700311e-001	-2.824922e-002
7.628008571428520e-002	-2.000000e+000	-9.675174e-001	-2.581207e-002
7.735151428571380e-002	-2.000000e+000	-1.057064e+000	-2.357341e-002
7.842294285714241e-002	-2.000000e+000	-1.138670e+000	-2.153325e-002
7.949437142857101e-002	-2.000000e+000	-1.212336e+000	-1.969159e-002
8.056579999999960e-002	-2.000000e+000	-1.278063e+000	-1.804844e-002
8.165151428571392e-002	-2.000000e+000	-1.339492e+000	-1.651270e-002
8.273722857142823e-002	-2.000000e+000	-1.396575e+000	-1.508563e-002
8.382294285714256e-002	-2.000000e+000	-1.449310e+000	-1.376724e-002
8.490865714285688e-002	-2.000000e+000	-1.497699e+000	-1.255752e-002
8.599437142857119e-002	-2.000000e+000	-1.541741e+000	-1.145648e-002
8.708008571428551e-002	-2.000000e+000	-1.581435e+000	-1.046412e-002
8.816579999999982e-002	-2.000000e+000	-1.616783e+000	-9.580426e-003
8.912294285714270e-002	-2.000000e+000	-1.645779e+000	-8.855528e-003
9.008008571428559e-002	-2.000000e+000	-1.672917e+000	-8.177078e-003
9.103722857142847e-002	-2.000000e+000	-1.698197e+000	-7.545075e-003
9.199437142857136e-002	-2.000000e+000	-1.721619e+000	-6.959520e-003
9.295151428571424e-002	-2.000000e+000	-1.743184e+000	-6.420411e-003
9.390865714285714e-002	-2.000000e+000	-1.762890e+000	-5.927750e-003
9.486580000000001e-002	-2.000000e+000	-1.780739e+000	-5.481537e-003
9.496580000000002e-002	-2.000000e+000	-1.782558e+000	-5.436047e-003
9.605151428571433e-002	-2.000000e+000	-1.801060e+000	-4.973494e-003
9.713722857142865e-002	-2.000000e+000	-1.818253e+000	-4.543673e-003
9.822294285714298e-002	-2.000000e+000	-1.834137e+000	-4.146584e-003
9.930865714285729e-002	-2.000000e+000	-1.848711e+000	-3.782227e-003
1.003943714285716e-001	-2.000000e+000	-1.861976e+000	-3.450602e-003
1.014800857142859e-001	-2.000000e+000	-1.873932e+000	-3.151710e-003
1.025658000000002e-001	-2.000000e+000	-1.884578e+000	-2.885549e-003
1.036515142857146e-001	-2.000000e+000	-1.894399e+000	-2.640018e-003
1.047372285714289e-001	-2.000000e+000	-1.903525e+000	-2.411861e-003
1.058229428571432e-001	-2.000000e+000	-1.911957e+000	-2.201079e-003
1.069086571428575e-001	-2.000000e+000	-1.919693e+000	-2.007672e-003
1.079943714285718e-001	-2.000000e+000	-1.926734e+000	-1.831640e-003
1.090800857142861e-001	-2.000000e+000	-1.933081e+000	-1.672983e-003
1.101658000000005e-001	-2.000000e+000	-1.938732e+000	-1.531700e-003
1.112515142857148e-001	-2.000000e+000	-1.943945e+000	-1.401368e-003
1.123372285714291e-001	-2.000000e+000	-1.948790e+000	-1.280258e-003
1.134229428571434e-001	-2.000000e+000	-1.953265e+000	-1.168372e-003
1.145086571428577e-001	-2.000000e+000	-1.957372e+000	-1.065708e-003
1.155943714285720e-001	-2.000000e+000	-1.961109e+000	-9.722667e-004
1.166800857142864e-001	-2.000000e+000	-1.964478e+000	-8.880485e-004
1.177658000000007e-001	-2.000000e+000	-1.967478e+000	-8.130530e-004
1.180658000000007e-001	-2.000000e+000	-1.968280e+000	-7.930080e-004
1.183658000000007e-001	-2.000000e+000	-1.969063e+000	-7.734289e-004
1.186658000000007e-001	-2.000000e+000	-1.969827e+000	-7.543158e-004
1.189658000000007e-001	-2.000000e+000	-1.970573e+000	-7.356685e-004
1.192658000000007e-001	-2.000000e+000	-1.971301e+000	-7.174872e-004
1.195658000000007e-001	-2.000000e+000	-1.972009e+000	-6.997718e-004
1.198658000000007e-001	-2.000000e+000	-1.972699e+000	-6.825224e-004
1.199658000000007e-001	-2.000000e+000	-1.972926e+000	-6.768506e-004
1.200000000000000e-001	-2.000000e+000	-1.973003e+000	-6.749203e-004
